
**** 05/08/18 14:33:59 ********* PSpice 9.2 (Mar 2000) ******** ID# 0 ********

 ** Profile: "SCHEMATIC1-spaz5"  [ E:\AZ\5\paze5-schematic1-spaz5.sim ] 


 ****     CIRCUIT DESCRIPTION


******************************************************************************




** Creating circuit file "paze5-schematic1-spaz5.sim.cir" 
** WARNING: THIS AUTOMATICALLY GENERATED FILE MAY BE OVERWRITTEN BY SUBSEQUENT SIMULATIONS

*Libraries: 
* Local Libraries :
* From [PSPICE NETLIST] section of C:\Program Files\Orcad\PSpice\PSpice.ini file:
.lib "nom.lib" 

*Analysis directives: 
.AC DEC 100 1 10000k
.PROBE V(*) I(*) W(*) D(*) NOISE(*) 
.INC ".\paze5-SCHEMATIC1.net" 



**** INCLUDING paze5-SCHEMATIC1.net ****
* source PAZE5
X_U1         N00127 N00242 N00776 N01224 N00198 AD745/AD
V_V1         N01344 0 DC 0Vdc AC 1Vac 
R_R1         N01344 N00242  10k  
R_R2         0 N00127  10k  
R_R3         N00127 N00198  1990k  
V_V4         0 N01224 10Vdc
V_V3         N00776 0 10Vdc

**** RESUMING paze5-schematic1-spaz5.sim.cir ****
.END

**** 05/08/18 14:33:59 ********* PSpice 9.2 (Mar 2000) ******** ID# 0 ********

 ** Profile: "SCHEMATIC1-spaz5"  [ E:\AZ\5\paze5-schematic1-spaz5.sim ] 


 ****     Diode MODEL PARAMETERS


******************************************************************************




               X_U1.DX         X_U1.DY         X_U1.DEN        X_U1.DIN        
          IS    1.000000E-15    1.000000E-15   10.000000E-15   10.000000E-15 
          BV                   50                                            
          RS                                    1.015000E+03    5.277000E+03 
          KF                                    4.311000E-15   42.593000E-15 


**** 05/08/18 14:33:59 ********* PSpice 9.2 (Mar 2000) ******** ID# 0 ********

 ** Profile: "SCHEMATIC1-spaz5"  [ E:\AZ\5\paze5-schematic1-spaz5.sim ] 


 ****     Junction FET MODEL PARAMETERS


******************************************************************************




               X_U1.JX         
               PJF             
         VTO   -1.5          
        BETA   66.299        
          IS  150.000000E-12 


**** 05/08/18 14:33:59 ********* PSpice 9.2 (Mar 2000) ******** ID# 0 ********

 ** Profile: "SCHEMATIC1-spaz5"  [ E:\AZ\5\paze5-schematic1-spaz5.sim ] 


 ****     SMALL SIGNAL BIAS SOLUTION       TEMPERATURE =   27.000 DEG C


******************************************************************************



 NODE   VOLTAGE     NODE   VOLTAGE     NODE   VOLTAGE     NODE   VOLTAGE


(N00127)-103.0E-06 (N00198)    -.0199 (N00242)-2.964E-06 (N00776)   10.0000     

(N01224)  -10.0000 (N01344)    0.0000 (X_U1.1)   -1.4132 (X_U1.4)-2.969E-06     

(X_U1.5)   -9.9566 (X_U1.6)   -9.9566 (X_U1.7)-103.0E-06 (X_U1.8)    2.0000     

(X_U1.9) 224.3E-18 (X_U1.10)   -2.0000                   (X_U1.11)   10.0000    

(X_U1.12)    0.0000                   (X_U1.13)  -10.0000                       

(X_U1.14)   10.0000                   (X_U1.15) 4.016E-15                       

(X_U1.16)  -10.0000                   (X_U1.17)    -.0199                       

(X_U1.18)    9.9730                   (X_U1.19)   -8.8070                       

(X_U1.23)    -.0199                   (X_U1.24)    -.0199                       

(X_U1.25)-19.95E+03                   (X_U1.26)    -.0199                       

(X_U1.27)    -.0199                   (X_U1.28)    -.0199                       

(X_U1.29)-52.97E-06                   (X_U1.30)-51.48E-06                       

(X_U1.31)-420.7E-12                   (X_U1.32)    2.9021                       

(X_U1.33)   -1.4799                   (X_U1.34)   40.1030                       

(X_U1.35)    9.5986                   (X_U1.36)    -.0199                       

(X_U1.51)  -10.0000                   (X_U1.52)    0.0000                       

(X_U1.83)-19.95E+03                   (X_U1.84)    0.0000                       

(X_U1.97)   10.0000                   (X_U1.98)    0.0000                   




    VOLTAGE SOURCE CURRENTS
    NAME         CURRENT

    V_V1        -2.964E-10
    V_V4        -7.875E-03
    V_V3        -7.875E-03
    X_U1.VN1    -1.318E-03
    X_U1.VN2    -1.318E-03
    X_U1.VN3    -1.768E-03
    X_U1.VN4    -1.768E-03
    X_U1.VN5    -1.768E-03
    X_U1.VN6    -1.768E-03
    X_U1.V1      9.994E-12
    X_U1.V2      8.788E-12
    X_U1.VX1     0.000E+00
    X_U1.V3     -2.923E-12
    X_U1.V4     -1.461E-12

    TOTAL POWER DISSIPATION   2.34E-01  WATTS



          JOB CONCLUDED

          TOTAL JOB TIME             .19
