
**** 05/08/18 14:41:47 ********* PSpice 9.2 (Mar 2000) ******** ID# 0 ********

 ** Profile: "SCHEMATIC1-spaze7"  [ E:\AZ\7\paze7-schematic1-spaze7.sim ] 


 ****     CIRCUIT DESCRIPTION


******************************************************************************




** Creating circuit file "paze7-schematic1-spaze7.sim.cir" 
** WARNING: THIS AUTOMATICALLY GENERATED FILE MAY BE OVERWRITTEN BY SUBSEQUENT SIMULATIONS

*Libraries: 
* Local Libraries :
* From [PSPICE NETLIST] section of C:\Program Files\Orcad\PSpice\PSpice.ini file:
.lib "nom.lib" 

*Analysis directives: 
.AC DEC 100 1 1000k
.PROBE V(*) I(*) W(*) D(*) NOISE(*) 
.INC ".\paze7-SCHEMATIC1.net" 



**** INCLUDING paze7-SCHEMATIC1.net ****
* source PAZE7
R_R5         N00772 0  4.7k  
X_U1         N00582 N00689 N000032 N000033 N00704 AD741
V_V1         0 N000033 10Vdc
V_V3         N01305 0 DC 0Vdc AC 1Vac 
V_V2         N000032 0 10Vdc
R_R1         N00772 N00704  150k  
R_R2         N00582 N00772  3300k  
R_R3         0 N00689  3300k  
R_R4         0 N00704  10k  
C_C1         N00772 N00704  10n  
C_C2         N01305 N00689  1u  

**** RESUMING paze7-schematic1-spaze7.sim.cir ****
.END

**** 05/08/18 14:41:47 ********* PSpice 9.2 (Mar 2000) ******** ID# 0 ********

 ** Profile: "SCHEMATIC1-spaze7"  [ E:\AZ\7\paze7-schematic1-spaze7.sim ] 


 ****     Diode MODEL PARAMETERS


******************************************************************************




               X_U1.dx         X_U1.dy         
          IS  800.000000E-18  800.000000E-18 
          RS                    1.000000E-03 
         CJO                   10.000000E-12 


**** 05/08/18 14:41:47 ********* PSpice 9.2 (Mar 2000) ******** ID# 0 ********

 ** Profile: "SCHEMATIC1-spaze7"  [ E:\AZ\7\paze7-schematic1-spaze7.sim ] 


 ****     BJT MODEL PARAMETERS


******************************************************************************




               X_U1.qx         
               NPN             
          IS  800.000000E-18 
          BF   93.75         
          NF    1            
          BR    1            
          NR    1            
          CN    2.42         
           D     .87         


**** 05/08/18 14:41:47 ********* PSpice 9.2 (Mar 2000) ******** ID# 0 ********

 ** Profile: "SCHEMATIC1-spaze7"  [ E:\AZ\7\paze7-schematic1-spaze7.sim ] 


 ****     SMALL SIGNAL BIAS SOLUTION       TEMPERATURE =   27.000 DEG C


******************************************************************************



 NODE   VOLTAGE     NODE   VOLTAGE     NODE   VOLTAGE     NODE   VOLTAGE


(N00582)    -.2629 (N00689)    -.2629 (N00704)     .0050 (N00772)-210.1E-06     

(N01305)    0.0000 (X_U1.6)-479.6E-09 (X_U1.7)     .0051 (X_U1.8)     .0051     

(X_U1.9)    0.0000 (N000032)   10.0000                   (N000033)  -10.0000    

(X_U1.10)    -.8705                   (X_U1.11)    9.9604                       

(X_U1.12)    9.9604                   (X_U1.13)    -.8567                       

(X_U1.14)    -.8567                   (X_U1.53)    9.0000                       

(X_U1.54)   -9.0000                   (X_U1.90) 537.6E-06                       

(X_U1.91)   25.0000                   (X_U1.92)  -25.0000                       

(X_U1.99)    0.0000                   




    VOLTAGE SOURCE CURRENTS
    NAME         CURRENT

    V_V1        -1.116E-03
    V_V3         0.000E+00
    V_V2        -1.116E-03
    X_U1.vb     -4.796E-12
    X_U1.vc      8.996E-12
    X_U1.ve      9.095E-12
    X_U1.vlim    5.376E-07
    X_U1.vlp    -2.500E-11
    X_U1.vln    -2.500E-11

    TOTAL POWER DISSIPATION   2.23E-02  WATTS



          JOB CONCLUDED

          TOTAL JOB TIME             .08
