
**** 05/08/18 14:38:37 ********* PSpice 9.2 (Mar 2000) ******** ID# 0 ********

 ** Profile: "SCHEMATIC1-spaze6"  [ E:\AZ\6\paze6-schematic1-spaze6.sim ] 


 ****     CIRCUIT DESCRIPTION


******************************************************************************




** Creating circuit file "paze6-schematic1-spaze6.sim.cir" 
** WARNING: THIS AUTOMATICALLY GENERATED FILE MAY BE OVERWRITTEN BY SUBSEQUENT SIMULATIONS

*Libraries: 
* Local Libraries :
* From [PSPICE NETLIST] section of C:\Program Files\Orcad\PSpice\PSpice.ini file:
.lib "nom.lib" 

*Analysis directives: 
.TRAN  0 3ms 0 1us 
.PROBE V(*) I(*) W(*) D(*) NOISE(*) 
.INC ".\paze6-SCHEMATIC1.net" 



**** INCLUDING paze6-SCHEMATIC1.net ****
* source PAZE6
V_V3         N000032 0 10Vdc
X_U1         N00529 N00129 N000032 N000033 N00089 AD741
D_D1         N00089 N00129 D1N4001 
V_V4         0 N000033 10Vdc
R_R1         0 N00129  1k  
V_V5         N00529 0  
+SIN 0 3v 1k 0 0 0

**** RESUMING paze6-schematic1-spaze6.sim.cir ****
.END

**** 05/08/18 14:38:37 ********* PSpice 9.2 (Mar 2000) ******** ID# 0 ********

 ** Profile: "SCHEMATIC1-spaze6"  [ E:\AZ\6\paze6-schematic1-spaze6.sim ] 


 ****     Diode MODEL PARAMETERS


******************************************************************************




               D1N4001         X_U1.dx         X_U1.dy         
          IS   14.110000E-09  800.000000E-18  800.000000E-18 
           N    1.984                                        
         IKF   94.81                                         
          BV   75                                            
         IBV   10.000000E-06                                 
          RS     .03389                         1.000000E-03 
          TT    5.700000E-06                                 
         CJO   25.890000E-12                   10.000000E-12 
          VJ     .3245                                       
           M     .44                                         


**** 05/08/18 14:38:37 ********* PSpice 9.2 (Mar 2000) ******** ID# 0 ********

 ** Profile: "SCHEMATIC1-spaze6"  [ E:\AZ\6\paze6-schematic1-spaze6.sim ] 


 ****     BJT MODEL PARAMETERS


******************************************************************************




               X_U1.qx         
               NPN             
          IS  800.000000E-18 
          BF   93.75         
          NF    1            
          BR    1            
          NR    1            
          CN    2.42         
           D     .87         


**** 05/08/18 14:38:37 ********* PSpice 9.2 (Mar 2000) ******** ID# 0 ********

 ** Profile: "SCHEMATIC1-spaze6"  [ E:\AZ\6\paze6-schematic1-spaze6.sim ] 


 ****     INITIAL TRANSIENT SOLUTION       TEMPERATURE =   27.000 DEG C


******************************************************************************



 NODE   VOLTAGE     NODE   VOLTAGE     NODE   VOLTAGE     NODE   VOLTAGE


(N00089)     .1066 (N00129) 18.72E-06 (N00529)    0.0000 (X_U1.6)-10.05E-06     

(X_U1.7)     .1066 (X_U1.8)     .1066 (X_U1.9)    0.0000 (N000032)   10.0000    

(N000033)  -10.0000                   (X_U1.10)    -.6077                       

(X_U1.11)    9.9603                   (X_U1.12)    9.9603                       

(X_U1.13)    -.5938                   (X_U1.14)    -.5938                       

(X_U1.53)    9.0000                   (X_U1.54)   -9.0000                       

(X_U1.90) 98.49E-06                   (X_U1.91)   25.0000                       

(X_U1.92)  -25.0000                   (X_U1.99)    0.0000                   




    VOLTAGE SOURCE CURRENTS
    NAME         CURRENT

    V_V3        -1.116E-03
    V_V4        -1.116E-03
    V_V5        -7.973E-08
    X_U1.vb     -1.005E-10
    X_U1.vc      8.894E-12
    X_U1.ve      9.095E-12
    X_U1.vlim    9.849E-08
    X_U1.vlp    -2.500E-11
    X_U1.vln    -2.500E-11

    TOTAL POWER DISSIPATION   2.23E-02  WATTS



          JOB CONCLUDED

          TOTAL JOB TIME             .33
