
**** 05/08/18 14:40:48 ********* PSpice 9.2 (Mar 2000) ******** ID# 0 ********

 ** Profile: "SCHEMATIC1-spaze6"  [ E:\AZ\6\paze6-2-schematic1-spaze6.sim ] 


 ****     CIRCUIT DESCRIPTION


******************************************************************************




** Creating circuit file "paze6-2-schematic1-spaze6.sim.cir" 
** WARNING: THIS AUTOMATICALLY GENERATED FILE MAY BE OVERWRITTEN BY SUBSEQUENT SIMULATIONS

*Libraries: 
* Local Libraries :
* From [PSPICE NETLIST] section of C:\Program Files\Orcad\PSpice\PSpice.ini file:
.lib "nom.lib" 

*Analysis directives: 
.TRAN  0 3ms 0 100n 
.PROBE V(*) I(*) W(*) D(*) NOISE(*) 
.INC ".\paze6-2-SCHEMATIC1.net" 



**** INCLUDING paze6-2-SCHEMATIC1.net ****
* source PAZE6-2
X_U1         0 N01578 N01047 N00994 N01143 AD741
V_V2         0 N054613 10Vdc
R_R4         N02440 N02458  10k  
R_R1         N01578 N02035  10k  
V_V1         N00892 0 10Vdc
R_R2         N01578 N02090  10k  
R_R5         N02565 N01578  10k  
R_R3         N02035 N02440  10k  
D_D1         N02035 N01143 D1N4001 
D_D2         N01143 N02090 D1N4001 
V_V5         N02565 0  
+SIN 0 0.3 1k 0 0 0
X_U3         N02090 N02440 N00892 N054613 N02458 AD741
V_V3         N01047 0 10Vdc
V_V4         0 N00994 10Vdc

**** RESUMING paze6-2-schematic1-spaze6.sim.cir ****
.END

**** 05/08/18 14:40:48 ********* PSpice 9.2 (Mar 2000) ******** ID# 0 ********

 ** Profile: "SCHEMATIC1-spaze6"  [ E:\AZ\6\paze6-2-schematic1-spaze6.sim ] 


 ****     Diode MODEL PARAMETERS


******************************************************************************




               D1N4001         X_U1.dx         X_U1.dy         X_U3.dx         
          IS   14.110000E-09  800.000000E-18  800.000000E-18  800.000000E-18 
           N    1.984                                                        
         IKF   94.81                                                         
          BV   75                                                            
         IBV   10.000000E-06                                                 
          RS     .03389                         1.000000E-03                 
          TT    5.700000E-06                                                 
         CJO   25.890000E-12                   10.000000E-12                 
          VJ     .3245                                                       
           M     .44                                                         


               X_U3.dy         
          IS  800.000000E-18 
          RS    1.000000E-03 
         CJO   10.000000E-12 


**** 05/08/18 14:40:48 ********* PSpice 9.2 (Mar 2000) ******** ID# 0 ********

 ** Profile: "SCHEMATIC1-spaze6"  [ E:\AZ\6\paze6-2-schematic1-spaze6.sim ] 


 ****     BJT MODEL PARAMETERS


******************************************************************************




               X_U1.qx         X_U3.qx         
               NPN             NPN             
          IS  800.000000E-18  800.000000E-18 
          BF   93.75           93.75         
          NF    1               1            
          BR    1               1            
          NR    1               1            
          CN    2.42            2.42         
           D     .87             .87         


**** 05/08/18 14:40:48 ********* PSpice 9.2 (Mar 2000) ******** ID# 0 ********

 ** Profile: "SCHEMATIC1-spaze6"  [ E:\AZ\6\paze6-2-schematic1-spaze6.sim ] 


 ****     INITIAL TRANSIENT SOLUTION       TEMPERATURE =   27.000 DEG C


******************************************************************************



 NODE   VOLTAGE     NODE   VOLTAGE     NODE   VOLTAGE     NODE   VOLTAGE


(N00892)   10.0000 (N00994)  -10.0000 (N01047)   10.0000 (N01143)     .1195     

(N01578) 18.66E-06 (N02035) 339.6E-06 (N02090) 514.0E-06 (N02440) 533.3E-06     

(N02458)     .0015 (N02565)    0.0000 (X_U1.6)-11.27E-06 (X_U1.7)     .1195     

(X_U1.8)     .1195 (X_U1.9)    0.0000 (X_U3.6)-144.8E-09 (X_U3.7)     .0015     

(X_U3.8)     .0015 (X_U3.9)    0.0000 (N054613)  -10.0000                       

(X_U1.10)    -.6077                   (X_U1.11)    9.9603                       

(X_U1.12)    9.9603                   (X_U1.13)    -.5938                       

(X_U1.14)    -.5938                   (X_U1.53)    9.0000                       

(X_U1.54)   -9.0000                   (X_U1.90) 142.0E-06                       

(X_U1.91)   25.0000                   (X_U1.92)  -25.0000                       

(X_U1.99)    0.0000                   (X_U3.10)    -.6072                       

(X_U3.11)    9.9603                   (X_U3.12)    9.9603                       

(X_U3.13)    -.5933                   (X_U3.14)    -.5933                       

(X_U3.53)    9.0000                   (X_U3.54)   -9.0000                       

(X_U3.90) 99.13E-06                   (X_U3.91)   25.0000                       

(X_U3.92)  -25.0000                   (X_U3.99)    0.0000                   




    VOLTAGE SOURCE CURRENTS
    NAME         CURRENT

    V_V2        -1.116E-03
    V_V1        -1.116E-03
    V_V5         1.866E-09
    V_V3        -1.116E-03
    V_V4        -1.116E-03
    X_U1.vb     -1.127E-10
    X_U1.vc      8.881E-12
    X_U1.ve      9.095E-12
    X_U1.vlim    1.420E-07
    X_U1.vlp    -2.500E-11
    X_U1.vln    -2.500E-11
    X_U3.vb     -1.448E-12
    X_U3.vc      8.999E-12
    X_U3.ve      9.095E-12
    X_U3.vlim    9.913E-08
    X_U3.vlp    -2.500E-11
    X_U3.vln    -2.500E-11

    TOTAL POWER DISSIPATION   4.47E-02  WATTS



          JOB CONCLUDED

          TOTAL JOB TIME            4.37
