
**** 05/08/18 14:44:35 ********* PSpice 9.2 (Mar 2000) ******** ID# 0 ********

 ** Profile: "SCHEMATIC1-spaze8"  [ E:\AZ\8\paze8-schematic1-spaze8.sim ] 


 ****     CIRCUIT DESCRIPTION


******************************************************************************




** Creating circuit file "paze8-schematic1-spaze8.sim.cir" 
** WARNING: THIS AUTOMATICALLY GENERATED FILE MAY BE OVERWRITTEN BY SUBSEQUENT SIMULATIONS

*Libraries: 
* Local Libraries :
* From [PSPICE NETLIST] section of C:\Program Files\Orcad\PSpice\PSpice.ini file:
.lib "nom.lib" 

*Analysis directives: 
.AC DEC 100 1 100k
.PROBE V(*) I(*) W(*) D(*) NOISE(*) 
.INC ".\paze8-SCHEMATIC1.net" 



**** INCLUDING paze8-SCHEMATIC1.net ****
* source PAZE8
X_U1         N00454 N00133 N000032 N000033 N00500 AD741
V_V1         N000032 0 10Vdc
V_V3         N001110 0 DC 0Vdc AC 1Vac 
V_V2         N000033 0 10Vdc
C_C1         N001110 N00133  16n  
R_R4         0 N00133  1k  
R_R5         N00500 N00454  1k  
R_R6         N00454 0  1k  

**** RESUMING paze8-schematic1-spaze8.sim.cir ****
.END

**** 05/08/18 14:44:35 ********* PSpice 9.2 (Mar 2000) ******** ID# 0 ********

 ** Profile: "SCHEMATIC1-spaze8"  [ E:\AZ\8\paze8-schematic1-spaze8.sim ] 


 ****     Diode MODEL PARAMETERS


******************************************************************************




               X_U1.dx         X_U1.dy         
          IS  800.000000E-18  800.000000E-18 
          RS                    1.000000E-03 
         CJO                   10.000000E-12 


**** 05/08/18 14:44:35 ********* PSpice 9.2 (Mar 2000) ******** ID# 0 ********

 ** Profile: "SCHEMATIC1-spaze8"  [ E:\AZ\8\paze8-schematic1-spaze8.sim ] 


 ****     BJT MODEL PARAMETERS


******************************************************************************




               X_U1.qx         
               NPN             
          IS  800.000000E-18 
          BF   93.75         
          NF    1            
          BR    1            
          NR    1            
          CN    2.42         
           D     .87         


**** 05/08/18 14:44:35 ********* PSpice 9.2 (Mar 2000) ******** ID# 0 ********

 ** Profile: "SCHEMATIC1-spaze8"  [ E:\AZ\8\paze8-schematic1-spaze8.sim ] 


 ****     SMALL SIGNAL BIAS SOLUTION       TEMPERATURE =   27.000 DEG C


******************************************************************************



 NODE   VOLTAGE     NODE   VOLTAGE     NODE   VOLTAGE     NODE   VOLTAGE


(N00133) 10.05E-09 (N00454)    4.9999 (N00500)   10.0000 (X_U1.6)   -1.4611     

(X_U1.7)   11.1520 (X_U1.8)   11.1520 (X_U1.9)    0.0000 (N000032)   10.0000    

(N000033)   10.0000                   (N001110)    0.0000                       

(X_U1.10)    4.3618                   (X_U1.11)   10.0000                       

(X_U1.12)    9.9227                   (X_U1.13)    4.3618                       

(X_U1.14)    4.3889                   (X_U1.53)    9.0000                       

(X_U1.54)   11.0000                   (X_U1.90)   25.6090                       

(X_U1.91)   25.0000                   (X_U1.92)  -25.0000                       

(X_U1.99)   10.0000                   




    VOLTAGE SOURCE CURRENTS
    NAME         CURRENT

    V_V1         2.154E+01
    V_V3         0.000E+00
    V_V2        -2.152E+01
    X_U1.vb     -1.461E-05
    X_U1.vc     -2.154E+01
    X_U1.ve     -2.152E+01
    X_U1.vlim    2.561E-02
    X_U1.vlp     1.361E-05
    X_U1.vln    -5.061E-11

    TOTAL POWER DISSIPATION   4.28E+01  WATTS



          JOB CONCLUDED

          TOTAL JOB TIME             .06
