
**** 05/04/18 19:30:48 ********* PSpice 9.2 (Mar 2000) ******** ID# 0 ********

 ** Profile: "SCHEMATIC1-spaze8-2"  [ E:\AZ\8\paze8-1-SCHEMATIC1-spaze8-2.sim ] 


 ****     CIRCUIT DESCRIPTION


******************************************************************************




** Creating circuit file "paze8-1-SCHEMATIC1-spaze8-2.sim.cir" 
** WARNING: THIS AUTOMATICALLY GENERATED FILE MAY BE OVERWRITTEN BY SUBSEQUENT SIMULATIONS

*Libraries: 
* Local Libraries :
* From [PSPICE NETLIST] section of C:\Program Files\Orcad\PSpice\PSpice.ini file:
.lib "nom.lib" 

*Analysis directives: 
.AC DEC 1 1 5000k
.PROBE V(*) I(*) W(*) D(*) NOISE(*) 
.INC ".\paze8-1-SCHEMATIC1.net" 



**** INCLUDING paze8-1-SCHEMATIC1.net ****
* source PAZE8-1
X_U1         N00484 N00321 N000032 N000033 N00321 AD741
C_C1         N00716 N00484  75n  
V_V1         N000032 0 10Vdc
C_C2         N00743 N00716  1.35u  
V_V3         N00743 0 DC 0Vdc AC 1Vac 
V_V2         0 N000033 10Vdc
R_R1         N00716 N00321  5k  
R_R2         0 N00484  10k  

**** RESUMING paze8-1-SCHEMATIC1-spaze8-2.sim.cir ****
.END

**** 05/04/18 19:30:48 ********* PSpice 9.2 (Mar 2000) ******** ID# 0 ********

 ** Profile: "SCHEMATIC1-spaze8-2"  [ E:\AZ\8\paze8-1-SCHEMATIC1-spaze8-2.sim ] 


 ****     Diode MODEL PARAMETERS


******************************************************************************




               X_U1.dx         X_U1.dy         
          IS  800.000000E-18  800.000000E-18 
          RS                    1.000000E-03 
         CJO                   10.000000E-12 


**** 05/04/18 19:30:48 ********* PSpice 9.2 (Mar 2000) ******** ID# 0 ********

 ** Profile: "SCHEMATIC1-spaze8-2"  [ E:\AZ\8\paze8-1-SCHEMATIC1-spaze8-2.sim ] 


 ****     BJT MODEL PARAMETERS


******************************************************************************




               X_U1.qx         
               NPN             
          IS  800.000000E-18 
          BF   93.75         
          NF    1            
          BR    1            
          NR    1            
          CN    2.42         
           D     .87         


**** 05/04/18 19:30:48 ********* PSpice 9.2 (Mar 2000) ******** ID# 0 ********

 ** Profile: "SCHEMATIC1-spaze8-2"  [ E:\AZ\8\paze8-1-SCHEMATIC1-spaze8-2.sim ] 


 ****     SMALL SIGNAL BIAS SOLUTION       TEMPERATURE =   27.000 DEG C


******************************************************************************



 NODE   VOLTAGE     NODE   VOLTAGE     NODE   VOLTAGE     NODE   VOLTAGE


(N00321)-778.0E-06 (N00484)-797.3E-06 (N00716)-778.0E-06 (N00743)    0.0000     

(X_U1.6) 72.50E-09 (X_U1.7)-774.4E-06 (X_U1.8)-774.4E-06 (X_U1.9)    0.0000     

(N000032)   10.0000                   (N000033)  -10.0000                       

(X_U1.10)    -.6085                   (X_U1.11)    9.9603                       

(X_U1.12)    9.9603                   (X_U1.13)    -.5946                       

(X_U1.14)    -.5946                   (X_U1.53)    9.0000                       

(X_U1.54)   -9.0000                   (X_U1.90) 79.77E-06                       

(X_U1.91)   25.0000                   (X_U1.92)  -25.0000                       

(X_U1.99)    0.0000                   




    VOLTAGE SOURCE CURRENTS
    NAME         CURRENT

    V_V1        -1.116E-03
    V_V3         0.000E+00
    V_V2        -1.116E-03
    X_U1.vb      7.250E-13
    X_U1.vc      9.002E-12
    X_U1.ve      9.095E-12
    X_U1.vlim    7.977E-08
    X_U1.vlp    -2.500E-11
    X_U1.vln    -2.500E-11

    TOTAL POWER DISSIPATION   2.23E-02  WATTS



          JOB CONCLUDED

          TOTAL JOB TIME             .03
